! Created Thu Sep 19 17:35:40 2024
# hz S ma R 50
! 5 Port Network Data from SP1.SP block
! freq  magS11  angS11  magS12  angS12  magS13  angS13  magS14  angS14  
!       magS15  angS15  
!       magS21  angS21  magS22  angS22  magS23  angS23  
!       magS24  angS24  magS25  angS25  
!       magS31  angS31  magS32  angS32  
!       magS33  angS33  magS34  angS34  magS35  angS35  
!       magS41  angS41  
!       magS42  angS42  magS43  angS43  magS44  angS44  magS45  angS45  
!       magS51  angS51  magS52  angS52  magS53  angS53  magS54  angS54  
!       magS55  angS55  
!     
                10       0.599991496                180        0.399997314    -1.00438582e-07        0.399997314    -1.00438582e-07        0.399997314    -1.00438582e-07
                      0.399999552    -1.71578139e-08
                      0.399997314    -1.00438582e-07        0.599991496                180        0.399997314    -1.00438582e-07        0.399997314    -1.00438582e-07
                      0.399999552    -1.71578139e-08
                      0.399997314    -1.00438582e-07        0.399997314    -1.00438582e-07        0.599991496                180        0.399997314    -1.00438582e-07
                      0.399999552    -1.71578139e-08
                      0.399997314    -1.00438582e-07        0.399997314    -1.00438582e-07        0.399997314    -1.00438582e-07        0.599991496                180
                      0.399999552    -1.71578139e-08
                      0.399999552    -1.71578139e-08        0.399999552    -1.71578139e-08        0.399999552    -1.71578139e-08        0.399999552    -1.71578139e-08
                       0.59999821                180

          30000010       0.599999233         179.368071         0.39999334       -0.301314225         0.39999334       -0.301314225         0.39999334       -0.301314225
                      0.399999427        -0.05147345
                       0.39999334       -0.301314225        0.599999233         179.368071         0.39999334       -0.301314225         0.39999334       -0.301314225
                      0.399999427        -0.05147345
                       0.39999334       -0.301314225         0.39999334       -0.301314225        0.599999233         179.368071         0.39999334       -0.301314225
                      0.399999427        -0.05147345
                       0.39999334       -0.301314225         0.39999334       -0.301314225         0.39999334       -0.301314225        0.599999233         179.368071
                      0.399999427        -0.05147345
                      0.399999427        -0.05147345        0.399999427        -0.05147345        0.399999427        -0.05147345        0.399999427        -0.05147345
                      0.599998481         179.867753

          60000010         0.6000229         178.736187        0.399981562       -0.602618777        0.399981562       -0.602618777        0.399981562       -0.602618777
                      0.399999076       -0.102946835
                      0.399981562       -0.602618777          0.6000229         178.736187        0.399981562       -0.602618777        0.399981562       -0.602618777
                      0.399999076       -0.102946835
                      0.399981562       -0.602618777        0.399981562       -0.602618777          0.6000229         178.736187        0.399981562       -0.602618777
                      0.399999076       -0.102946835
                      0.399981562       -0.602618777        0.399981562       -0.602618777        0.399981562       -0.602618777          0.6000229         178.736187
                      0.399999076       -0.102946835
                      0.399999076       -0.102946835        0.399999076       -0.102946835        0.399999076       -0.102946835        0.399999076       -0.102946835
                       0.59999939         179.735507

          90000010       0.600062402         178.104391        0.399961955       -0.903904217        0.399961955       -0.903904217        0.399961955       -0.903904217
                      0.399998495       -0.154420123
                      0.399961955       -0.903904217        0.600062402         178.104391        0.399961955       -0.903904217        0.399961955       -0.903904217
                      0.399998495       -0.154420123
                      0.399961955       -0.903904217        0.399961955       -0.903904217        0.600062402         178.104391        0.399961955       -0.903904217
                      0.399998495       -0.154420123
                      0.399961955       -0.903904217        0.399961955       -0.903904217        0.399961955       -0.903904217        0.600062402         178.104391
                      0.399998495       -0.154420123
                      0.399998495       -0.154420123        0.399998495       -0.154420123        0.399998495       -0.154420123        0.399998495       -0.154420123
                       0.60000092         179.603261

         120000010       0.600117721         177.472729         0.39993452        -1.20516101         0.39993452        -1.20516101         0.39993452        -1.20516101
                      0.399997683       -0.205893269
                       0.39993452        -1.20516101        0.600117721         177.472729         0.39993452        -1.20516101         0.39993452        -1.20516101
                      0.399997683       -0.205893269
                       0.39993452        -1.20516101         0.39993452        -1.20516101        0.600117721         177.472729         0.39993452        -1.20516101
                      0.399997683       -0.205893269
                       0.39993452        -1.20516101         0.39993452        -1.20516101         0.39993452        -1.20516101        0.600117721         177.472729
                      0.399997683       -0.205893269
                      0.399997683       -0.205893269        0.399997683       -0.205893269        0.399997683       -0.205893269        0.399997683       -0.205893269
                      0.600003068         179.471015

         150000010       0.600188835         176.841244         0.39989926        -1.50637962         0.39989926        -1.50637962         0.39989926        -1.50637962
                       0.39999664       -0.257366223
                       0.39989926        -1.50637962        0.600188835         176.841244         0.39989926        -1.50637962         0.39989926        -1.50637962
                       0.39999664       -0.257366223
                       0.39989926        -1.50637962         0.39989926        -1.50637962        0.600188835         176.841244         0.39989926        -1.50637962
                       0.39999664       -0.257366223
                       0.39989926        -1.50637962         0.39989926        -1.50637962         0.39989926        -1.50637962        0.600188835         176.841244
                       0.39999664       -0.257366223
                       0.39999664       -0.257366223         0.39999664       -0.257366223         0.39999664       -0.257366223         0.39999664       -0.257366223
                      0.600005834         179.338771

         180000010        0.60027572          176.20998        0.399856182        -1.80755052        0.399856182        -1.80755052        0.399856182        -1.80755052
                      0.399995366       -0.308838939
                      0.399856182        -1.80755052         0.60027572          176.20998        0.399856182        -1.80755052        0.399856182        -1.80755052
                      0.399995366       -0.308838939
                      0.399856182        -1.80755052        0.399856182        -1.80755052         0.60027572          176.20998        0.399856182        -1.80755052
                      0.399995366       -0.308838939
                      0.399856182        -1.80755052        0.399856182        -1.80755052        0.399856182        -1.80755052         0.60027572          176.20998
                      0.399995366       -0.308838939
                      0.399995366       -0.308838939        0.399995366       -0.308838939        0.399995366       -0.308838939        0.399995366       -0.308838939
                      0.600009218         179.206529

         210000010       0.600378351         175.578983        0.399805291        -2.10866419        0.399805291        -2.10866419        0.399805291        -2.10866419
                      0.399993861       -0.360311368
                      0.399805291        -2.10866419        0.600378351         175.578983        0.399805291        -2.10866419        0.399805291        -2.10866419
                      0.399993861       -0.360311368
                      0.399805291        -2.10866419        0.399805291        -2.10866419        0.600378351         175.578983        0.399805291        -2.10866419
                      0.399993861       -0.360311368
                      0.399805291        -2.10866419        0.399805291        -2.10866419        0.399805291        -2.10866419        0.600378351         175.578983
                      0.399993861       -0.360311368
                      0.399993861       -0.360311368        0.399993861       -0.360311368        0.399993861       -0.360311368        0.399993861       -0.360311368
                      0.600013218         179.074287

         240000010       0.600496694         174.948295        0.399746597        -2.40971114        0.399746597        -2.40971114        0.399746597        -2.40971114
                      0.399992125       -0.411783463
                      0.399746597        -2.40971114        0.600496694         174.948295        0.399746597        -2.40971114        0.399746597        -2.40971114
                      0.399992125       -0.411783463
                      0.399746597        -2.40971114        0.399746597        -2.40971114        0.600496694         174.948295        0.399746597        -2.40971114
                      0.399992125       -0.411783463
                      0.399746597        -2.40971114        0.399746597        -2.40971114        0.399746597        -2.40971114        0.600496694         174.948295
                      0.399992125       -0.411783463
                      0.399992125       -0.411783463        0.399992125       -0.411783463        0.399992125       -0.411783463        0.399992125       -0.411783463
                      0.600017835         178.942048

         270000010       0.600630714         174.317961        0.399680109        -2.71068187        0.399680109        -2.71068187        0.399680109        -2.71068187
                      0.399990158       -0.463255176
                      0.399680109        -2.71068187        0.600630714         174.317961        0.399680109        -2.71068187        0.399680109        -2.71068187
                      0.399990158       -0.463255176
                      0.399680109        -2.71068187        0.399680109        -2.71068187        0.600630714         174.317961        0.399680109        -2.71068187
                      0.399990158       -0.463255176
                      0.399680109        -2.71068187        0.399680109        -2.71068187        0.399680109        -2.71068187        0.600630714         174.317961
                      0.399990158       -0.463255176
                      0.399990158       -0.463255176        0.399990158       -0.463255176        0.399990158       -0.463255176        0.399990158       -0.463255176
                       0.60002307         178.809811

         300000010       0.600780369         173.688024        0.399605839        -3.01156692        0.399605839        -3.01156692        0.399605839        -3.01156692
                       0.39998796        -0.51472646
                      0.399605839        -3.01156692        0.600780369         173.688024        0.399605839        -3.01156692        0.399605839        -3.01156692
                       0.39998796        -0.51472646
                      0.399605839        -3.01156692        0.399605839        -3.01156692        0.600780369         173.688024        0.399605839        -3.01156692
                       0.39998796        -0.51472646
                      0.399605839        -3.01156692        0.399605839        -3.01156692        0.399605839        -3.01156692        0.600780369         173.688024
                       0.39998796        -0.51472646
                       0.39998796        -0.51472646         0.39998796        -0.51472646         0.39998796        -0.51472646         0.39998796        -0.51472646
                      0.600028921         178.677577

         330000010       0.600945614         173.058527        0.399523798        -3.31235684        0.399523798        -3.31235684        0.399523798        -3.31235684
                      0.399985531       -0.566197267
                      0.399523798        -3.31235684        0.600945614         173.058527        0.399523798        -3.31235684        0.399523798        -3.31235684
                      0.399985531       -0.566197267
                      0.399523798        -3.31235684        0.399523798        -3.31235684        0.600945614         173.058527        0.399523798        -3.31235684
                      0.399985531       -0.566197267
                      0.399523798        -3.31235684        0.399523798        -3.31235684        0.399523798        -3.31235684        0.600945614         173.058527
                      0.399985531       -0.566197267
                      0.399985531       -0.566197267        0.399985531       -0.566197267        0.399985531       -0.566197267        0.399985531       -0.566197267
                      0.600035388         178.545345

         360000010       0.601126399         172.429515           0.399434        -3.61304219           0.399434        -3.61304219           0.399434        -3.61304219
                      0.399982871       -0.617667549
                         0.399434        -3.61304219        0.601126399         172.429515           0.399434        -3.61304219           0.399434        -3.61304219
                      0.399982871       -0.617667549
                         0.399434        -3.61304219           0.399434        -3.61304219        0.601126399         172.429515           0.399434        -3.61304219
                      0.399982871       -0.617667549
                         0.399434        -3.61304219           0.399434        -3.61304219           0.399434        -3.61304219        0.601126399         172.429515
                      0.399982871       -0.617667549
                      0.399982871       -0.617667549        0.399982871       -0.617667549        0.399982871       -0.617667549        0.399982871       -0.617667549
                      0.600042472         178.413117

         390000010       0.601322669          171.80103        0.399336462        -3.91361357        0.399336462        -3.91361357        0.399336462        -3.91361357
                      0.399979979       -0.669137258
                      0.399336462        -3.91361357        0.601322669          171.80103        0.399336462        -3.91361357        0.399336462        -3.91361357
                      0.399979979       -0.669137258
                      0.399336462        -3.91361357        0.399336462        -3.91361357        0.601322669          171.80103        0.399336462        -3.91361357
                      0.399979979       -0.669137258
                      0.399336462        -3.91361357        0.399336462        -3.91361357        0.399336462        -3.91361357        0.601322669          171.80103
                      0.399979979       -0.669137258
                      0.399979979       -0.669137258        0.399979979       -0.669137258        0.399979979       -0.669137258        0.399979979       -0.669137258
                      0.600050172         178.280891

         420000010       0.601534364         171.173115        0.399231198        -4.21406161        0.399231198        -4.21406161        0.399231198        -4.21406161
                      0.399976857       -0.720606347
                      0.399231198        -4.21406161        0.601534364         171.173115        0.399231198        -4.21406161        0.399231198        -4.21406161
                      0.399976857       -0.720606347
                      0.399231198        -4.21406161        0.399231198        -4.21406161        0.601534364         171.173115        0.399231198        -4.21406161
                      0.399976857       -0.720606347
                      0.399231198        -4.21406161        0.399231198        -4.21406161        0.399231198        -4.21406161        0.601534364         171.173115
                      0.399976857       -0.720606347
                      0.399976857       -0.720606347        0.399976857       -0.720606347        0.399976857       -0.720606347        0.399976857       -0.720606347
                      0.600058489          178.14867

         450000010       0.601761421         170.545812        0.399118227        -4.51437693        0.399118227        -4.51437693        0.399118227        -4.51437693
                      0.399973503       -0.772074768
                      0.399118227        -4.51437693        0.601761421         170.545812        0.399118227        -4.51437693        0.399118227        -4.51437693
                      0.399973503       -0.772074768
                      0.399118227        -4.51437693        0.399118227        -4.51437693        0.601761421         170.545812        0.399118227        -4.51437693
                      0.399973503       -0.772074768
                      0.399118227        -4.51437693        0.399118227        -4.51437693        0.399118227        -4.51437693        0.601761421         170.545812
                      0.399973503       -0.772074768
                      0.399973503       -0.772074768        0.399973503       -0.772074768        0.399973503       -0.772074768        0.399973503       -0.772074768
                      0.600067421         178.016452

         480000010       0.602003772         169.919164        0.398997567        -4.81455024        0.398997567        -4.81455024        0.398997567        -4.81455024
                      0.399969919       -0.823542474
                      0.398997567        -4.81455024        0.602003772         169.919164        0.398997567        -4.81455024        0.398997567        -4.81455024
                      0.399969919       -0.823542474
                      0.398997567        -4.81455024        0.398997567        -4.81455024        0.602003772         169.919164        0.398997567        -4.81455024
                      0.399969919       -0.823542474
                      0.398997567        -4.81455024        0.398997567        -4.81455024        0.398997567        -4.81455024        0.602003772         169.919164
                      0.399969919       -0.823542474
                      0.399969919       -0.823542474        0.399969919       -0.823542474        0.399969919       -0.823542474        0.399969919       -0.823542474
                       0.60007697         177.884238

         510000010       0.602261344         169.293212         0.39886924        -5.11457222         0.39886924        -5.11457222         0.39886924        -5.11457222
                      0.399966103       -0.875009416
                       0.39886924        -5.11457222        0.602261344         169.293212         0.39886924        -5.11457222         0.39886924        -5.11457222
